(1723389667.471822) can0 130#41FFFDFFFF
(1723389667.571769) can0 130#41FFFDFFFF
(1723389667.671760) can0 130#41FFFDFFFF
(1723389667.771789) can0 130#41FFFDFFFF
(1723389667.871744) can0 130#41FFFDFFFF
(1723389667.971875) can0 130#41FFFDFFFF
(1723389668.071728) can0 130#41FFFDFFFF
(1723389668.171803) can0 130#41FFFDFFFF
(1723389668.271817) can0 130#41FFFDFFFF
(1723389668.371823) can0 130#41FFFDFFFF
(1723389668.471792) can0 130#41FFFDFFFF
(1723389668.571794) can0 130#41FFFDFFFF
(1723389668.671770) can0 130#41FFFDFFFF
(1723389668.771788) can0 130#41FFFDFFFF
(1723389668.871776) can0 130#41FFFDFFFF
(1723389668.971704) can0 130#41FFFDFFFF
(1723389669.071700) can0 130#41FFFDFFFF
(1723389669.171676) can0 130#41FFFDFFFF
(1723389669.271683) can0 130#41FFFDFFFF
(1723389669.371665) can0 130#41FFFDFFFF
(1723389669.471693) can0 130#41FFFDFFFF
(1723389669.571660) can0 130#41FFFDFFFF
(1723389669.671659) can0 130#41FFFDFFFF
(1723389669.771641) can0 130#41FFFDFFFF
(1723389669.871601) can0 130#41FFFDFFFF
(1723389669.981613) can0 130#41FFFDFFFF
(1723389670.071679) can0 130#41FFFDFFFF
(1723389670.171646) can0 130#41FFFDFFFF
(1723389670.271573) can0 130#41FFFDFFFF
(1723389670.371633) can0 130#41FFFDFFFF
(1723389670.471577) can0 130#41FFFDFFFF
(1723389670.571584) can0 130#41FFFDFFFF
(1723389670.671576) can0 130#41FFFDFFFF
(1723389670.771454) can0 130#41FFFDFFFF
(1723389670.871478) can0 130#41FFFDFFFF
(1723389670.971486) can0 130#41FFFDFFFF
(1723389671.071488) can0 130#41FFFDFFFF
(1723389671.171502) can0 130#41FFFDFFFF
(1723389671.271511) can0 130#41FFFDFFFF
(1723389671.371451) can0 130#41FFFDFFFF
(1723389671.471461) can0 130#41FFFDFFFF
(1723389671.571440) can0 130#41FFFDFFFF
(1723389671.671457) can0 130#41FFFDFFFF
(1723389671.771416) can0 130#41FFFDFFFF
(1723389671.871395) can0 130#41FFFDFFFF
(1723389671.981398) can0 130#41FFFDFFFF
(1723389672.071420) can0 130#41FFFDFFFF
(1723389672.171421) can0 130#41FFFDFFFF
(1723389672.271391) can0 130#41FFFDFFFF
(1723389672.371393) can0 130#41FFFDFFFF
(1723389672.471396) can0 130#41FFFDFFFF
(1723389672.571382) can0 130#41FFFDFFFF
(1723389672.671364) can0 130#41FFFDFFFF
(1723389672.771369) can0 130#41FFFDFFFF
(1723389672.871338) can0 130#41FFFDFFFF
(1723389672.971346) can0 130#41FFFDFFFF
(1723389673.071357) can0 130#41FFFDFFFF
(1723389673.171327) can0 130#41FFFDFFFF
(1723389673.271322) can0 130#41FFFDFFFF
(1723389673.371315) can0 130#41FFFDFFFF
(1723389673.471297) can0 130#41FFFDFFFF
(1723389673.571284) can0 130#41FFFDFFFF
(1723389673.671300) can0 130#41FFFDFFFF
(1723389673.771269) can0 130#41FFFDFFFF
(1723389673.871279) can0 130#41FFFDFFFF
(1723389673.981234) can0 130#41FFFDFFFF
(1723389674.071241) can0 130#41FFFDFFFF
(1723389674.171255) can0 130#41FFFDFFFF
(1723389674.271208) can0 130#41FFFDFFFF
(1723389674.371211) can0 130#41FFFDFFFF
(1723389674.471211) can0 130#41FFFDFFFF
(1723389674.571213) can0 130#41FFFDFFFF
(1723389674.671195) can0 130#41FFFDFFFF
(1723389674.771170) can0 130#41FFFDFFFF
(1723389674.871199) can0 130#41FFFDFFFF
(1723389674.971162) can0 130#41FFFDFFFF
(1723389675.071154) can0 130#41FFFDFFFF
(1723389675.171164) can0 130#41FFFDFFFF
(1723389675.271127) can0 130#41FFFDFFFF
(1723389675.371128) can0 130#41FFFDFFFF
(1723389675.471146) can0 130#41FFFDFFFF
(1723389675.571112) can0 130#41FFFDFFFF
(1723389675.671096) can0 130#41FFFDFFFF
(1723389675.781079) can0 130#41FFFDFFFF
(1723389675.871087) can0 130#41FFFDFFFF
(1723389675.981074) can0 130#41FFFDFFFF
(1723389676.071089) can0 130#41FFFDFFFF
(1723389676.171086) can0 130#41FFFDFFFF
(1723389676.271051) can0 130#41FFFDFFFF
(1723389676.371073) can0 130#41FFFDFFFF
(1723389676.471026) can0 130#41FFFDFFFF
(1723389676.571027) can0 130#41FFFDFFFF
(1723389676.671042) can0 130#41FFFDFFFF
(1723389676.771015) can0 130#41FFFDFFFF
(1723389676.871008) can0 130#41FFFDFFFF
(1723389676.971009) can0 130#41FFFDFFFF
(1723389677.070980) can0 130#41FFFDFFFF
(1723389677.170982) can0 130#41FFFDFFFF
(1723389677.270969) can0 130#41FFFDFFFF
(1723389677.370966) can0 130#41FFFDFFFF
(1723389677.470953) can0 130#41FFFDFFFF
(1723389677.570952) can0 130#41FFFDFFFF
(1723389677.680933) can0 130#41FFFDFFFF
(1723389677.770932) can0 130#41FFFDFFFF
(1723389677.870933) can0 130#41FFFDFFFF
(1723389677.980911) can0 130#41FFFDFFFF
(1723389678.070888) can0 130#41FFFDFFFF
(1723389678.170906) can0 130#41FFFDFFFF
(1723389678.270908) can0 130#41FFFDFFFF
(1723389678.370859) can0 130#41FFFDFFFF
(1723389678.470875) can0 130#41FFFDFFFF
(1723389678.570859) can0 130#41FFFDFFFF
(1723389678.670849) can0 130#41FFFDFFFF
(1723389678.770857) can0 130#41FFFDFFFF
(1723389678.870830) can0 130#41FFFDFFFF
(1723389678.970821) can0 130#41FFFDFFFF
(1723389679.070841) can0 130#41FFFDFFFF
(1723389679.170805) can0 130#41FFFDFFFF
(1723389679.270816) can0 130#41FFFDFFFF
(1723389679.370786) can0 130#41FFFDFFFF
(1723389679.470840) can0 130#41FFFDFFFF
(1723389679.570782) can0 130#41FFFDFFFF
(1723389679.670779) can0 130#41FFFDFFFF
(1723389679.770763) can0 130#41FFFDFFFF
(1723389679.870736) can0 130#41FFFDFFFF
(1723389679.980745) can0 130#41FFFDFFFF
(1723389680.070738) can0 130#41FFFDFFFF
(1723389680.170710) can0 130#41FFFDFFFF
(1723389680.270729) can0 130#41FFFDFFFF
(1723389680.370699) can0 130#41FFFDFFFF
(1723389680.470693) can0 130#41FFFDFFFF
(1723389680.570705) can0 130#41FFFDFFFF
(1723389680.680665) can0 130#41FFFDFFFF
(1723389680.770674) can0 130#41FFFDFFFF
(1723389680.880656) can0 130#41FFFDFFFF
(1723389680.970650) can0 130#41FFFDFFFF
(1723389681.070639) can0 130#41FFFDFFFF
(1723389681.170647) can0 130#41FFFDFFFF
(1723389681.270633) can0 130#41FFFDFFFF
(1723389681.370621) can0 130#41FFFDFFFF
(1723389681.470629) can0 130#41FFFDFFFF
(1723389681.580591) can0 130#41FFFDFFFF
(1723389681.670590) can0 130#41FFFDFFFF
(1723389681.770630) can0 130#41FFFDFFFF
(1723389681.870598) can0 130#41FFFDFFFF
(1723389681.980570) can0 130#41FFFDFFFF
(1723389682.070588) can0 130#41FFFDFFFF
(1723389682.180534) can0 130#41FFFDFFFF
(1723389682.270541) can0 130#41FFFDFFFF
(1723389682.370547) can0 130#41FFFDFFFF
(1723389682.470519) can0 130#41FFFDFFFF
(1723389682.570510) can0 130#41FFFDFFFF
(1723389682.670525) can0 130#41FFFDFFFF
(1723389682.770499) can0 130#41FFFDFFFF
(1723389682.870498) can0 130#41FFFDFFFF
(1723389682.970499) can0 130#41FFFDFFFF
(1723389683.080425) can0 130#41FFFDFFFF
(1723389683.170474) can0 130#41FFFDFFFF
(1723389683.280466) can0 130#41FFFDFFFF
(1723389683.380437) can0 130#41FFFDFFFF
(1723389683.480441) can0 130#41FFFDFFFF
(1723389683.570446) can0 130#41FFFDFFFF
(1723389683.680428) can0 130#41FFFDFFFF
(1723389683.770421) can0 130#41FFFDFFFF
(1723389683.880417) can0 130#41FFFDFFFF
(1723389683.980378) can0 130#41FFFDFFFF
(1723389684.080398) can0 130#41FFFDFFFF
(1723389684.180365) can0 130#41FFFDFFFF
(1723389684.280378) can0 130#41FFFDFFFF
(1723389684.380353) can0 130#41FFFDFFFF
(1723389684.480358) can0 130#41FFFDFFFF
(1723389684.580339) can0 130#41FFFDFFFF
(1723389684.680361) can0 130#41FFFDFFFF
(1723389684.780318) can0 130#41FFFDFFFF
(1723389684.880326) can0 130#41FFFDFFFF
(1723389684.980332) can0 130#41FFFDFFFF
(1723389685.080386) can0 130#41FFFDFFFF
(1723389685.180341) can0 130#41FFFDFFFF
(1723389685.280334) can0 130#41FFFDFFFF
(1723389685.380284) can0 130#41FFFDFFFF
(1723389685.480343) can0 130#41FFFDFFFF
(1723389685.580285) can0 130#41FFFDFFFF
(1723389685.680302) can0 130#41FFFDFFFF
(1723389685.780313) can0 130#41FFFDFFFF
(1723389685.880351) can0 130#41FFFDFFFF
(1723389685.980298) can0 130#41FFFDFFFF
(1723389686.080267) can0 130#41FFFDFFFF
(1723389686.180206) can0 130#41FFFDFFFF
(1723389686.280252) can0 130#41FFFDFFFF
(1723389686.380179) can0 130#41FFFDFFFF
(1723389686.480203) can0 130#41FFFDFFFF
(1723389686.580175) can0 130#41FFFDFFFF
(1723389686.680169) can0 130#41FFFDFFFF
(1723389686.780176) can0 130#41FFFDFFFF
(1723389686.880147) can0 130#41FFFDFFFF
(1723389686.980140) can0 130#41FFFDFFFF
(1723389687.080151) can0 130#41FFFDFFFF
(1723389687.180167) can0 130#41FFFDFFFF
(1723389687.280121) can0 130#41FFFDFFFF
(1723389687.380160) can0 130#41FFFDFFFF
(1723389687.480149) can0 130#41FFFDFFFF
(1723389687.580144) can0 130#41FFFDFFFF
(1723389687.680174) can0 130#41FFFDFFFF
(1723389687.780139) can0 130#41FFFDFFFF
(1723389687.880102) can0 130#41FFFDFFFF
(1723389687.980102) can0 130#41FFFDFFFF
(1723389688.080107) can0 130#41FFFDFFFF
(1723389688.180035) can0 130#41FFFDFFFF
(1723389688.280049) can0 130#41FFFDFFFF
(1723389688.380018) can0 130#41FFFDFFFF
(1723389688.480002) can0 130#41FFFDFFFF
(1723389688.579999) can0 130#41FFFDFFFF
(1723389688.680009) can0 130#41FFFDFFFF
(1723389688.779985) can0 130#41FFFDFFFF
(1723389688.879995) can0 130#41FFFDFFFF
(1723389688.979959) can0 130#41FFFDFFFF
(1723389689.079963) can0 130#41FFFDFFFF
(1723389689.179971) can0 130#41FFFDFFFF
(1723389689.279948) can0 130#41FFFDFFFF
(1723389689.379928) can0 130#41FFFDFFFF
(1723389689.479969) can0 130#41FFFDFFFF
(1723389689.579896) can0 130#41FFFDFFFF
(1723389689.679936) can0 130#41FFFDFFFF
(1723389689.779903) can0 130#41FFFDFFFF
(1723389689.879902) can0 130#41FFFDFFFF
(1723389689.979874) can0 130#41FFFDFFFF
(1723389690.079882) can0 130#41FFFDFFFF
(1723389690.179862) can0 130#41FFFDFFFF
(1723389690.229818) can0 130#41FFFDFFFF
(1723389690.279890) can0 130#41FFFDFFFF
(1723389690.379846) can0 130#41FFFDFFFF
(1723389690.389772) can0 130#45FFFDFFFF
(1723389690.449823) can0 130#45FFFDFFFF
(1723389690.479871) can0 130#45FFFDFFFF
(1723389690.579808) can0 130#45FFFDFFFF
(1723389690.679837) can0 130#45FFFDFFFF
(1723389690.779808) can0 130#45FFFDFFFF
(1723389690.879809) can0 130#45FFFDFFFF
(1723389690.979823) can0 130#45FFFDFFFF
(1723389691.079806) can0 130#45FFFDFFFF
(1723389691.179776) can0 130#45FFFDFFFF
(1723389691.279778) can0 130#45FFFDFFFF
(1723389691.379765) can0 130#45FFFDFFFF
(1723389691.479764) can0 130#45FFFDFFFF
(1723389691.579752) can0 130#45FFFDFFFF
(1723389691.679751) can0 130#45FFFDFFFF
(1723389691.779723) can0 130#45FFFDFFFF
(1723389691.879731) can0 130#45FFFDFFFF
(1723389691.979710) can0 130#45FFFDFFFF
(1723389692.079708) can0 130#45FFFDFFFF
(1723389692.179686) can0 130#45FFFDFFFF
(1723389692.279696) can0 130#45FFFDFFFF
(1723389692.379681) can0 130#45FFFDFFFF
(1723389692.479690) can0 130#45FFFDFFFF
(1723389692.579681) can0 130#45FFFDFFFF
(1723389692.679654) can0 130#45FFFDFFFF
(1723389692.769649) can0 130#45FFFDFFFF
(1723389692.779645) can0 130#45FFFDFFFF
(1723389692.879647) can0 130#45FFFDFFFF
(1723389692.979628) can0 130#45FFFDFFFF
(1723389693.079645) can0 130#45FFFDFFFF
(1723389693.179600) can0 130#45FFFDFFFF
(1723389693.279612) can0 130#45FFFDFFFF
(1723389693.379601) can0 130#45FFFDFFFF
(1723389693.479603) can0 130#45FFFDFFFF
(1723389693.579574) can0 130#45FFFDFFFF
(1723389693.679601) can0 130#45FFFDFFFF
(1723389693.779557) can0 130#45FFFDFFFF
(1723389693.879574) can0 130#45FFFDFFFF
(1723389693.979540) can0 130#45FFFDFFFF
(1723389694.079546) can0 130#45FFFDFFFF
(1723389694.179525) can0 130#45FFFDFFFF
(1723389694.279559) can0 130#45FFFDFFFF
(1723389694.379529) can0 130#45FFFDFFFF
(1723389694.479509) can0 130#45FFFDFFFF
(1723389694.579512) can0 130#45FFFDFFFF
(1723389694.679477) can0 130#45FFFDFFFF
(1723389694.779471) can0 130#45FFFDFFFF
(1723389694.879502) can0 130#45FFFDFFFF
(1723389694.979453) can0 130#45FFFDFFFF
(1723389695.079478) can0 130#45FFFDFFFF
(1723389695.179435) can0 130#45FFFDFFFF
(1723389695.279447) can0 130#45FFFDFFFF
(1723389695.379413) can0 130#45FFFDFFFF
(1723389695.479431) can0 130#45FFFDFFFF
(1723389695.579402) can0 130#45FFFDFFFF
(1723389695.679418) can0 130#45FFFDFFFF
(1723389695.779381) can0 130#45FFFDFFFF
(1723389695.879384) can0 130#45FFFDFFFF
(1723389695.979363) can0 130#45FFFDFFFF
(1723389696.079365) can0 130#45FFFDFFFF
(1723389696.179373) can0 130#45FFFDFFFF
(1723389696.279372) can0 130#45FFFDFFFF
(1723389696.379362) can0 130#45FFFDFFFF
(1723389696.479324) can0 130#45FFFDFFFF
(1723389696.579335) can0 130#45FFFDFFFF
(1723389696.679351) can0 130#45FFFDFFFF
(1723389696.779298) can0 130#45FFFDFFFF
(1723389696.879298) can0 130#45FFFDFFFF
(1723389696.979283) can0 130#45FFFDFFFF
(1723389697.079288) can0 130#45FFFDFFFF
(1723389697.179266) can0 130#45FFFDFFFF
(1723389697.279256) can0 130#45FFFDFFFF
(1723389697.379246) can0 130#45FFFDFFFF
(1723389697.479237) can0 130#45FFFDFFFF
(1723389697.579241) can0 130#45FFFDFFFF
(1723389697.679235) can0 130#45FFFDFFFF
(1723389697.779207) can0 130#45FFFDFFFF
(1723389697.879219) can0 130#45FFFDFFFF
(1723389697.979206) can0 130#45FFFDFFFF
(1723389698.079193) can0 130#45FFFDFFFF
(1723389698.179205) can0 130#45FFFDFFFF
(1723389698.279188) can0 130#45FFFDFFFF
(1723389698.379175) can0 130#45FFFDFFFF
(1723389698.479185) can0 130#45FFFDFFFF
(1723389698.579136) can0 130#45FFFDFFFF
(1723389698.679154) can0 130#45FFFDFFFF
(1723389698.779131) can0 130#45FFFDFFFF
(1723389698.879114) can0 130#45FFFDFFFF
(1723389698.979100) can0 130#45FFFDFFFF
(1723389699.079129) can0 130#45FFFDFFFF
(1723389699.179111) can0 130#45FFFDFFFF
(1723389699.279091) can0 130#45FFFDFFFF
(1723389699.379076) can0 130#45FFFDFFFF
(1723389699.479083) can0 130#45FFFDFFFF
(1723389699.579062) can0 130#45FFFDFFFF
(1723389699.679072) can0 130#45FFFDFFFF
(1723389699.779023) can0 130#45FFFDFFFF
(1723389699.879034) can0 130#45FFFDFFFF
(1723389699.979021) can0 130#45FFFDFFFF
(1723389700.079023) can0 130#45FFFDFFFF
(1723389700.179026) can0 130#45FFFDFFFF
(1723389700.278996) can0 130#45FFFDFFFF
(1723389700.379005) can0 130#45FFFDFFFF
(1723389700.478996) can0 130#45FFFDFFFF
(1723389700.578979) can0 130#45FFFDFFFF
(1723389700.678975) can0 130#45FFFDFFFF
(1723389700.778944) can0 130#45FFFDFFFF
(1723389700.878971) can0 130#45FFFDFFFF
(1723389700.978931) can0 130#45FFFDFFFF
(1723389701.078938) can0 130#45FFFDFFFF
(1723389701.178941) can0 130#45FFFDFFFF
(1723389701.278916) can0 130#45FFFDFFFF
(1723389701.378902) can0 130#45FFFDFFFF
(1723389701.478912) can0 130#45FFFDFFFF
(1723389701.578875) can0 130#45FFFDFFFF
(1723389701.678863) can0 130#45FFFDFFFF
(1723389701.778868) can0 130#45FFFDFFFF
(1723389701.878863) can0 130#45FFFDFFFF
(1723389701.978841) can0 130#45FFFDFFFF
(1723389702.078862) can0 130#45FFFDFFFF
(1723389702.178851) can0 130#45FFFDFFFF
(1723389702.278850) can0 130#45FFFDFFFF
(1723389702.355478) can0 6F1#40021A8000000000
(1723389702.378844) can0 130#45FFFDFFFF
(1723389702.415091) can0 640#F1103C5A80000009
(1723389702.415738) can0 6F1#4030000000000000
(1723389702.416046) can0 640#F121389115C40906
(1723389702.416296) can0 640#F122A05341201506
(1723389702.416549) can0 640#F123020400000002
(1723389702.416843) can0 640#F124080003030000
(1723389702.417120) can0 640#F125000000000694
(1723389702.417394) can0 640#F126380530313930
(1723389702.417675) can0 640#F127303034324E36
(1723389702.417953) can0 640#F12842303034324E
(1723389702.418239) can0 640#F129364246323238
(1723389702.418522) can0 640#F12A53FFFFFFFFFF
(1723389702.478812) can0 130#45FFFDFFFF
(1723389702.513512) can0 6F1#4003221010000000
(1723389702.535525) can0 640#F11014621010574D
(1723389702.536155) can0 6F1#4030000000000000
(1723389702.536441) can0 640#F121575355393130
(1723389702.536697) can0 640#F122363054373137
(1723389702.536948) can0 640#F123343230FFFFFF
(1723389702.578834) can0 130#45FFFDFFFF
(1723389702.601653) can0 6F1#4003300101000000
(1723389702.660454) can0 640#F110437001018328
(1723389702.661089) can0 6F1#4030000000000000
(1723389702.661389) can0 640#F121C02896606000
(1723389702.661689) can0 640#F122000000600161
(1723389702.661935) can0 640#F1236060605E0000
(1723389702.662190) can0 640#F12401010020EC37
(1723389702.662482) can0 640#F125004B01000000
(1723389702.662756) can0 640#F1260101A1009AEA
(1723389702.663033) can0 640#F1272600C1521600
(1723389702.663315) can0 640#F1281B0000000001
(1723389702.663592) can0 640#F129000000454121
(1723389702.663876) can0 640#F12A8FAB81010500
(1723389702.664163) can0 640#F12B000FFFFFFFFF
(1723389702.678827) can0 130#45FFFDFFFF
(1723389702.778779) can0 130#45FFFDFFFF
(1723389702.878782) can0 130#45FFFDFFFF
(1723389702.967711) can0 6F1#4003223F00000000
(1723389702.978782) can0 130#45FFFDFFFF
(1723389702.990133) can0 640#F11013623F000241
(1723389702.990777) can0 6F1#4030000000000000
(1723389702.991063) can0 640#F1213453C955BFCF
(1723389702.991302) can0 640#F1225651422558E9
(1723389702.991556) can0 640#F1231E38FFFFFFFF
(1723389703.029823) can0 6F1#63021A8000000000
(1723389703.064665) can0 663#F1101F5A80000003
(1723389703.065312) can0 6F1#6330000000000000
(1723389703.065607) can0 663#F12145756700340F
(1723389703.065897) can0 663#F122A85946201303
(1723389703.066159) can0 663#F1231456001404E3
(1723389703.066414) can0 663#F124491004000400
(1723389703.066691) can0 663#F1250000FFFFFFFF
(1723389703.078739) can0 130#45FFFDFFFF
(1723389703.142095) can0 6F1#EF021A8000000000
(1723389703.165634) can0 630#F1101F5A80000006
(1723389703.166281) can0 6F1#3030000000000000
(1723389703.166576) can0 630#F12185682612010D
(1723389703.166813) can0 630#F122214E57201412
(1723389703.167054) can0 630#F123227000144C04
(1723389703.167342) can0 630#F124090300000101
(1723389703.167631) can0 630#F1250016FFFFFFFF
(1723389703.167910) can0 600#F1101F5A80000003
(1723389703.168818) can0 6F1#0030000000000000
(1723389703.169102) can0 600#F12145749006050E
(1723389703.169379) can0 600#F122B04E55201111
(1723389703.169649) can0 600#F123170900268A03
(1723389703.169928) can0 600#F1242C1E030A0000
(1723389703.170306) can0 600#F1250000FFFFFFFF
(1723389703.178738) can0 130#45FFFDFFFF
(1723389703.267436) can0 678#F1103C5A80000003
(1723389703.268073) can0 6F1#7830000000000000
(1723389703.268369) can0 678#F12145723303430E
(1723389703.268629) can0 678#F122005752200910
(1723389703.268879) can0 678#F123221100249D06
(1723389703.269158) can0 678#F124020104020300
(1723389703.269443) can0 678#F125000000000345
(1723389703.269720) can0 678#F126576300000000
(1723389703.269999) can0 678#F127303131323430
(1723389703.270343) can0 678#F128303031313234
(1723389703.270583) can0 678#F129303046313530
(1723389703.270817) can0 678#F12A41FFFFFFFFFF
(1723389703.278754) can0 130#45FFFDFFFF
(1723389703.312666) can0 602#F1101F5A80000009
(1723389703.313298) can0 6F1#0230000000000000
(1723389703.313591) can0 602#F12125641707010E
(1723389703.313883) can0 602#F122F05156200608
(1723389703.314161) can0 602#F123281100145405
(1723389703.314434) can0 602#F1240500030A0300
(1723389703.314711) can0 602#F1250000FFFFFFFF
(1723389703.376158) can0 672#F1103C5A80000003
(1723389703.376791) can0 6F1#7230000000000000
(1723389703.377081) can0 672#F12145759612370E
(1723389703.377342) can0 672#F122605645201303
(1723389703.377584) can0 672#F123140900130912
(1723389703.377858) can0 672#F1243C1E04140000
(1723389703.378132) can0 672#F125000000000345
(1723389703.378402) can0 672#F126701800015003
(1723389703.378685) can0 672#F127303039324552
(1723389703.378929) can0 130#45FFFDFFFF
(1723389703.379193) can0 672#F128303030393245
(1723389703.379440) can0 672#F129523046373330
(1723389703.379685) can0 672#F12A41FFFFFFFFFF
(1723389703.430181) can0 660#F1101F5A80000009
(1723389703.430815) can0 6F1#6030000000000000
(1723389703.431119) can0 660#F12132583924050C
(1723389703.431385) can0 660#F122C04E5A201303
(1723389703.431628) can0 660#F123217100249EE7
(1723389703.431901) can0 660#F1244100030B0000
(1723389703.432184) can0 660#F1250000FFFFFFFF
(1723389703.478748) can0 130#45FFFDFFFF
(1723389703.487191) can0 640#F1103C5A80000009
(1723389703.487830) can0 6F1#4030000000000000
(1723389703.488120) can0 640#F121389115C40906
(1723389703.488419) can0 640#F122A05341201506
(1723389703.488696) can0 640#F123020400000002
(1723389703.488970) can0 640#F124080003030000
(1723389703.489243) can0 640#F125000000000694
(1723389703.489514) can0 640#F126380530313930
(1723389703.489802) can0 640#F127303034324E36
(1723389703.490154) can0 640#F12842303034324E
(1723389703.490401) can0 640#F129364246323238
(1723389703.490643) can0 640#F12A53FFFFFFFFFF
(1723389703.573119) can0 601#F1103C5A80000009
(1723389703.573762) can0 6F1#0130000000000000
(1723389703.574066) can0 601#F12181229629470E
(1723389703.574329) can0 601#F122904E59201303
(1723389703.574579) can0 601#F1230758002C2C36
(1723389703.574853) can0 601#F1245B0104020000
(1723389703.575133) can0 601#F125000000000980
(1723389703.575404) can0 601#F126871331042555
(1723389703.575679) can0 601#F127303538324231
(1723389703.575963) can0 601#F128303035383242
(1723389703.576245) can0 601#F129313046343631
(1723389703.576525) can0 601#F12A41FFFFFFFFFF
(1723389703.578732) can0 130#45FFFDFFFF
(1723389703.619174) can0 612#F1103C5A80000008
(1723389703.619828) can0 6F1#1230000000000000
(1723389703.620214) can0 612#F121652746001500
(1723389703.620469) can0 612#F122025953201406
(1723389703.620716) can0 612#F1233008FFFFFFFF
(1723389703.620962) can0 612#F124FFFFFFFFFFFF
(1723389703.621215) can0 612#F125FFFF00000763
(1723389703.621494) can0 612#F126770870199550
(1723389703.621791) can0 612#F127303038333530
(1723389703.622036) can0 612#F128303030383335
(1723389703.622291) can0 612#F129303054383530
(1723389703.622827) can0 612#F12A42FFFFFFFFFF
(1723389703.640709) can0 662#F1101F5A80000009
(1723389703.641357) can0 6F1#6230000000000000
(1723389703.641655) can0 662#F12134322000000F
(1723389703.641952) can0 662#F122905449201210
(1723389703.642188) can0 662#F1230156001404E3
(1723389703.642430) can0 662#F124491004000400
(1723389703.642710) can0 662#F1250000FFFFFFFF
(1723389703.678709) can0 130#45FFFDFFFF
(1723389703.778661) can0 130#45FFFDFFFF
(1723389703.844449) can0 629#F1103C5A80000006
(1723389703.845129) can0 6F1#2930000000000000
(1723389703.845414) can0 629#F121874556070D0E
(1723389703.845661) can0 629#F122E64E58201303
(1723389703.845901) can0 629#F12308420024AA03
(1723389703.846189) can0 629#F124620003042800
(1723389703.846469) can0 629#F125000000000685
(1723389703.846735) can0 629#F126169506802753
(1723389703.847016) can0 629#F127303432324942
(1723389703.847302) can0 629#F128303034323249
(1723389703.847578) can0 629#F129423046363630
(1723389703.847855) can0 629#F12A41FFFFFFFFFF
(1723389703.864771) can0 691#F1101F5A80000009
(1723389703.865397) can0 6F1#9130000000000000
(1723389703.865701) can0 691#F121302175000000
(1723389703.865968) can0 691#F122005945201206
(1723389703.866214) can0 691#F1230156001404D3
(1723389703.866493) can0 691#F124450004000400
(1723389703.866774) can0 691#F1250000FFFFFFFF
(1723389703.878723) can0 130#45FFFDFFFF
(1723389703.890435) can0 663#F1101F5A80000003
(1723389703.891069) can0 6F1#6330000000000000
(1723389703.891363) can0 663#F12145756700340F
(1723389703.891659) can0 663#F122A85946201303
(1723389703.891900) can0 663#F1231456001404E3
(1723389703.892139) can0 663#F124491004000400
(1723389703.892414) can0 663#F1250000FFFFFFFF
(1723389703.978681) can0 130#45FFFDFFFF
(1723389704.078670) can0 130#45FFFDFFFF
(1723389704.178668) can0 130#45FFFDFFFF
(1723389704.278656) can0 130#45FFFDFFFF
(1723389704.378644) can0 130#45FFFDFFFF
(1723389704.478677) can0 130#45FFFDFFFF
(1723389704.578643) can0 130#45FFFDFFFF
(1723389704.678632) can0 130#45FFFDFFFF
(1723389704.778617) can0 130#45FFFDFFFF
(1723389704.878603) can0 130#45FFFDFFFF
(1723389704.978582) can0 130#45FFFDFFFF
(1723389705.078599) can0 130#45FFFDFFFF
(1723389705.178564) can0 130#45FFFDFFFF
(1723389705.278585) can0 130#45FFFDFFFF
(1723389705.378552) can0 130#45FFFDFFFF
(1723389705.478558) can0 130#45FFFDFFFF
(1723389705.578578) can0 130#45FFFDFFFF
(1723389705.678545) can0 130#45FFFDFFFF
(1723389705.778526) can0 130#45FFFDFFFF
(1723389705.878533) can0 130#45FFFDFFFF
(1723389705.978515) can0 130#45FFFDFFFF
(1723389706.078504) can0 130#45FFFDFFFF
(1723389706.178480) can0 130#45FFFDFFFF
(1723389706.278509) can0 130#45FFFDFFFF
(1723389706.378493) can0 130#45FFFDFFFF
(1723389706.478464) can0 130#45FFFDFFFF
(1723389706.578491) can0 130#45FFFDFFFF
(1723389706.678493) can0 130#45FFFDFFFF
(1723389706.778453) can0 130#45FFFDFFFF
(1723389706.878417) can0 130#45FFFDFFFF
(1723389706.978384) can0 130#45FFFDFFFF
(1723389707.078422) can0 130#45FFFDFFFF
(1723389707.178397) can0 130#45FFFDFFFF
(1723389707.278399) can0 130#45FFFDFFFF
(1723389707.378388) can0 130#45FFFDFFFF
(1723389707.478392) can0 130#45FFFDFFFF
(1723389707.578412) can0 130#45FFFDFFFF
(1723389707.678357) can0 130#45FFFDFFFF
(1723389707.778359) can0 130#45FFFDFFFF
(1723389707.878353) can0 130#45FFFDFFFF
(1723389707.978327) can0 130#45FFFDFFFF
(1723389708.078345) can0 130#45FFFDFFFF
(1723389708.178313) can0 130#45FFFDFFFF
(1723389708.278318) can0 130#45FFFDFFFF
(1723389708.378311) can0 130#45FFFDFFFF
(1723389708.478297) can0 130#45FFFDFFFF
(1723389708.518827) can0 6F1#5605A680021A8000
(1723389708.578308) can0 130#45FFFDFFFF
(1723389708.678285) can0 130#45FFFDFFFF
(1723389708.778330) can0 130#45FFFDFFFF
(1723389708.878277) can0 130#45FFFDFFFF
(1723389708.978250) can0 130#45FFFDFFFF
(1723389709.078251) can0 130#45FFFDFFFF
(1723389709.178235) can0 130#45FFFDFFFF
(1723389709.278229) can0 130#45FFFDFFFF
(1723389709.378168) can0 130#45FFFDFFFF
(1723389709.478209) can0 130#45FFFDFFFF
(1723389709.578208) can0 130#45FFFDFFFF
(1723389709.678205) can0 130#45FFFDFFFF
(1723389709.778180) can0 130#45FFFDFFFF
(1723389709.878188) can0 130#45FFFDFFFF
(1723389709.978148) can0 130#45FFFDFFFF
(1723389710.078166) can0 130#45FFFDFFFF
(1723389710.178154) can0 130#45FFFDFFFF
(1723389710.278140) can0 130#45FFFDFFFF
(1723389710.378167) can0 130#45FFFDFFFF
(1723389710.478124) can0 130#45FFFDFFFF
(1723389710.578137) can0 130#45FFFDFFFF
(1723389710.678148) can0 130#45FFFDFFFF
(1723389710.758060) can0 6F1#5605A680021A8000
(1723389710.778118) can0 130#45FFFDFFFF
(1723389710.878107) can0 130#45FFFDFFFF
(1723389710.978112) can0 130#45FFFDFFFF
(1723389711.078100) can0 130#45FFFDFFFF
(1723389711.178074) can0 130#45FFFDFFFF
(1723389711.278088) can0 130#45FFFDFFFF
(1723389711.378130) can0 130#45FFFDFFFF
(1723389711.478081) can0 130#45FFFDFFFF
(1723389711.578082) can0 130#45FFFDFFFF
(1723389711.678065) can0 130#45FFFDFFFF
(1723389711.778044) can0 130#45FFFDFFFF
(1723389711.878048) can0 130#45FFFDFFFF
(1723389711.978050) can0 130#45FFFDFFFF
(1723389712.078023) can0 130#45FFFDFFFF
(1723389712.178026) can0 130#45FFFDFFFF
(1723389712.278020) can0 130#45FFFDFFFF
(1723389712.378000) can0 130#45FFFDFFFF
(1723389712.478005) can0 130#45FFFDFFFF
(1723389712.577999) can0 130#45FFFDFFFF
(1723389712.677976) can0 130#45FFFDFFFF
(1723389712.777946) can0 130#45FFFDFFFF
(1723389712.877979) can0 130#45FFFDFFFF
(1723389712.977936) can0 130#45FFFDFFFF
(1723389713.077941) can0 130#45FFFDFFFF
(1723389713.110468) can0 6F1#60021A8000000000
(1723389713.171398) can0 660#F1101F5A80000009
(1723389713.172033) can0 6F1#6030000000000000
(1723389713.172295) can0 660#F12132583924050C
(1723389713.172559) can0 660#F122C04E5A201303
(1723389713.172836) can0 660#F123217100249EE7
(1723389713.173112) can0 660#F1244100030B0000
(1723389713.173399) can0 660#F1250000FFFFFFFF
(1723389713.177926) can0 130#45FFFDFFFF
(1723389713.270727) can0 6F1#60021A8000000000
(1723389713.277958) can0 130#45FFFDFFFF
(1723389713.328362) can0 660#F1101F5A80000009
(1723389713.329000) can0 6F1#6030000000000000
(1723389713.329299) can0 660#F12132583924050C
(1723389713.329559) can0 660#F122C04E5A201303
(1723389713.329802) can0 660#F123217100249EE7
(1723389713.330144) can0 660#F1244100030B0000
(1723389713.330405) can0 660#F1250000FFFFFFFF
(1723389713.377911) can0 130#45FFFDFFFF
(1723389713.465044) can0 6F1#6003223103000000
(1723389713.477933) can0 130#45FFFDFFFF
(1723389713.511285) can0 660#F1101B6231038400
(1723389713.511941) can0 6F1#6030000000000000
(1723389713.512239) can0 660#F121100000E803B8
(1723389713.512478) can0 660#F1220B8813401F34
(1723389713.512719) can0 660#F1230096024507E8
(1723389713.513009) can0 660#F1240BE412FFFFFF
(1723389713.547749) can0 6F1#6005302106108700
(1723389713.557156) can0 660#F1027021FFFFFFFF
(1723389713.577912) can0 130#45FFFDFFFF
(1723389713.610460) can0 6F1#6006230100270302
(1723389713.651146) can0 660#F1037F2378FFFFFF
(1723389713.677915) can0 130#45FFFDFFFF
(1723389713.777880) can0 130#45FFFDFFFF
(1723389713.807098) can0 660#F10363B036FFFFFF
(1723389713.848484) can0 6F1#6003223100000000
(1723389713.877893) can0 130#45FFFDFFFF
(1723389713.901880) can0 660#F110196231000F00
(1723389713.902530) can0 6F1#6030000000000000
(1723389713.902827) can0 660#F12100E8037017E0
(1723389713.903101) can0 660#F1222E135A00009C
(1723389713.903379) can0 660#F123047B185230C0
(1723389713.903669) can0 660#F1245D00FFFFFFFF
(1723389713.946602) can0 6F1#60053020063C9C00
(1723389713.953093) can0 660#F1027020FFFFFFFF
(1723389713.977849) can0 130#45FFFDFFFF
(1723389714.077865) can0 130#45FFFDFFFF
(1723389714.177835) can0 130#45FFFDFFFF
(1723389714.277831) can0 130#45FFFDFFFF
(1723389714.377817) can0 130#45FFFDFFFF
(1723389714.477798) can0 130#45FFFDFFFF
(1723389714.577807) can0 130#45FFFDFFFF
(1723389714.627908) can0 6F1#6003302100000000
(1723389714.637058) can0 660#F1027021FFFFFFFF
(1723389714.677838) can0 130#45FFFDFFFF
(1723389714.703214) can0 6F1#6003302000000000
(1723389714.713026) can0 660#F1027020FFFFFFFF
(1723389714.777787) can0 130#45FFFDFFFF
(1723389714.877789) can0 130#45FFFDFFFF
(1723389714.977741) can0 130#45FFFDFFFF
(1723389715.077763) can0 130#45FFFDFFFF
(1723389715.173171) can0 6F1#12021A8000000000
(1723389715.177746) can0 130#45FFFDFFFF
(1723389715.223157) can0 612#F1103C5A80000008
(1723389715.223797) can0 6F1#1230000000000000
(1723389715.224096) can0 612#F121652746001500
(1723389715.224391) can0 612#F122025953201406
(1723389715.224672) can0 612#F1233008FFFFFFFF
(1723389715.224953) can0 612#F124FFFFFFFFFFFF
(1723389715.225239) can0 612#F125FFFF00000763
(1723389715.225517) can0 612#F126770870199550
(1723389715.225793) can0 612#F127303038333530
(1723389715.226082) can0 612#F128303030383335
(1723389715.226328) can0 612#F129303054383530
(1723389715.226572) can0 612#F12A42FFFFFFFFFF
(1723389715.277790) can0 130#45FFFDFFFF
(1723389715.377748) can0 130#45FFFDFFFF
(1723389715.424276) can0 6F1#12021A8000000000
(1723389715.473219) can0 612#F1103C5A80000008
(1723389715.473851) can0 6F1#1230000000000000
(1723389715.474145) can0 612#F121652746001500
(1723389715.474405) can0 612#F122025953201406
(1723389715.474642) can0 612#F1233008FFFFFFFF
(1723389715.474925) can0 612#F124FFFFFFFFFFFF
(1723389715.475211) can0 612#F125FFFF00000763
(1723389715.475481) can0 612#F126770870199550
(1723389715.475761) can0 612#F127303038333530
(1723389715.476050) can0 612#F128303030383335
(1723389715.476327) can0 612#F129303054383530
(1723389715.476602) can0 612#F12A42FFFFFFFFFF
(1723389715.477720) can0 130#45FFFDFFFF
(1723389715.577708) can0 130#45FFFDFFFF
(1723389715.677727) can0 130#45FFFDFFFF
(1723389715.777704) can0 130#45FFFDFFFF
(1723389715.877714) can0 130#45FFFDFFFF
(1723389715.977676) can0 130#45FFFDFFFF
(1723389716.077675) can0 130#45FFFDFFFF
(1723389716.177671) can0 130#45FFFDFFFF
(1723389716.189478) can0 6F1#12032CF004000000
(1723389716.194927) can0 612#F1026CF0FFFFFFFF
(1723389716.258139) can0 6F1#1210382CF0020101
(1723389716.258844) can0 612#F1300000FFFFFFFF
(1723389716.259571) can0 6F1#1221580C01020202
(1723389716.259972) can0 6F1#122258F001020402
(1723389716.260400) can0 6F1#12235ABC01020602
(1723389716.260849) can0 6F1#122458DD01020801
(1723389716.261277) can0 6F1#1225580D01020901
(1723389716.261759) can0 6F1#1226440201020A01
(1723389716.262173) can0 6F1#1227581F01020B01
(1723389716.262603) can0 6F1#1228580501020C01
(1723389716.263043) can0 6F1#1229580F01000000
(1723389716.277684) can0 130#45FFFDFFFF
(1723389716.296887) can0 612#F1026CF0FFFFFFFF
(1723389716.352564) can0 6F1#120221F000000000
(1723389716.371180) can0 612#F1100E61F000038A
(1723389716.371805) can0 6F1#1230000000000000
(1723389716.372091) can0 612#F1210000316E0058
(1723389716.372387) can0 612#F122666669FFFFFF
(1723389716.377645) can0 130#45FFFDFFFF
(1723389716.414801) can0 6F1#120221F000000000
(1723389716.431179) can0 612#F1100E61F000038A
(1723389716.431808) can0 6F1#1230000000000000
(1723389716.432093) can0 612#F1210000316E0058
(1723389716.432353) can0 612#F122666669FFFFFF
(1723389716.477677) can0 130#45FFFDFFFF
(1723389716.502585) can0 6F1#120221F000000000
(1723389716.523224) can0 612#F1100E61F000038A
(1723389716.523854) can0 6F1#1230000000000000
(1723389716.524142) can0 612#F1210000316E0058
(1723389716.524437) can0 612#F122666669FFFFFF
(1723389716.551837) can0 6F1#120221F000000000
(1723389716.571185) can0 612#F1100E61F000038A
(1723389716.571808) can0 6F1#1230000000000000
(1723389716.572097) can0 612#F1210000316E0058
(1723389716.572389) can0 612#F122666669FFFFFF
(1723389716.577627) can0 130#45FFFDFFFF
(1723389716.601634) can0 6F1#120221F000000000
(1723389716.623218) can0 612#F1100E61F000038A
(1723389716.623841) can0 6F1#1230000000000000
(1723389716.624125) can0 612#F1210000316E0058
(1723389716.624420) can0 612#F122666669FFFFFF
(1723389716.651653) can0 6F1#120221F000000000
(1723389716.671178) can0 612#F1100E61F000038A
(1723389716.671802) can0 6F1#1230000000000000
(1723389716.672086) can0 612#F1210000316E0058
(1723389716.672377) can0 612#F122666669FFFFFF
(1723389716.677629) can0 130#45FFFDFFFF
(1723389716.701854) can0 6F1#120221F000000000
(1723389716.723214) can0 612#F1100E61F000038A
(1723389716.723841) can0 6F1#1230000000000000
(1723389716.724130) can0 612#F1210000316E0058
(1723389716.724425) can0 612#F122666669FFFFFF
(1723389716.751898) can0 6F1#120221F000000000
(1723389716.771167) can0 612#F1100E61F000038A
(1723389716.771821) can0 6F1#1230000000000000
(1723389716.772120) can0 612#F1210000316E0058
(1723389716.772362) can0 612#F122666669FFFFFF
(1723389716.777619) can0 130#45FFFDFFFF
(1723389716.801181) can0 6F1#120221F000000000
(1723389716.823227) can0 612#F1100E61F000038A
(1723389716.823852) can0 6F1#1230000000000000
(1723389716.824141) can0 612#F1210000316E0058
(1723389716.824437) can0 612#F122666669FFFFFF
(1723389716.851133) can0 6F1#120221F000000000
(1723389716.871191) can0 612#F1100E61F000038A
(1723389716.871815) can0 6F1#1230000000000000
(1723389716.872097) can0 612#F1210000316E0058
(1723389716.872376) can0 612#F122666669FFFFFF
(1723389716.877615) can0 130#45FFFDFFFF
(1723389716.901717) can0 6F1#120221F000000000
(1723389716.923219) can0 612#F1100E61F000038A
(1723389716.923848) can0 6F1#1230000000000000
(1723389716.924133) can0 612#F1210000316E0058
(1723389716.924424) can0 612#F122666669FFFFFF
(1723389716.951407) can0 6F1#120221F000000000
(1723389716.971185) can0 612#F1100E61F000038A
(1723389716.971806) can0 6F1#1230000000000000
(1723389716.972092) can0 612#F1210000316E0058
(1723389716.972385) can0 612#F122666669FFFFFF
(1723389716.977586) can0 130#45FFFDFFFF
(1723389717.000616) can0 6F1#120221F000000000
(1723389717.023228) can0 612#F1100E61F000038A
(1723389717.023858) can0 6F1#1230000000000000
(1723389717.024144) can0 612#F1210000316E0058
(1723389717.024439) can0 612#F122666669FFFFFF
(1723389717.050640) can0 6F1#120221F000000000
(1723389717.071192) can0 612#F1100E61F000038A
(1723389717.071816) can0 6F1#1230000000000000
(1723389717.072101) can0 612#F1210000316E0058
(1723389717.072395) can0 612#F122666669FFFFFF
(1723389717.077606) can0 130#45FFFDFFFF
(1723389717.100402) can0 6F1#120221F000000000
(1723389717.111160) can0 612#F1100E61F000038A
(1723389717.111816) can0 6F1#1230000000000000
(1723389717.112112) can0 612#F1210000316E0058
(1723389717.112352) can0 612#F122666669FFFFFF
(1723389717.151169) can0 6F1#120221F000000000
(1723389717.171191) can0 612#F1100E61F000038A
(1723389717.171815) can0 6F1#1230000000000000
(1723389717.172103) can0 612#F1210000316E0058
(1723389717.172395) can0 612#F122666669FFFFFF
(1723389717.177590) can0 130#45FFFDFFFF
(1723389717.200745) can0 6F1#120221F000000000
(1723389717.223172) can0 612#F1100E61F000038A
(1723389717.223826) can0 6F1#1230000000000000
(1723389717.224123) can0 612#F1210000316E0058
(1723389717.224399) can0 612#F122666669FFFFFF
(1723389717.250994) can0 6F1#120221F000000000
(1723389717.271161) can0 612#F1100E61F000038A
(1723389717.271820) can0 6F1#1230000000000000
(1723389717.272115) can0 612#F1210000316E0058
(1723389717.272356) can0 612#F122666669FFFFFF
(1723389717.277577) can0 130#45FFFDFFFF
(1723389717.301263) can0 6F1#120221F000000000
(1723389717.323173) can0 612#F1100E61F000038A
(1723389717.323823) can0 6F1#1230000000000000
(1723389717.324120) can0 612#F1210000316E0058
(1723389717.324395) can0 612#F122666669FFFFFF
(1723389717.350623) can0 6F1#120221F000000000
(1723389717.371165) can0 612#F1100E61F000038A
(1723389717.371826) can0 6F1#1230000000000000
(1723389717.372125) can0 612#F1210000316E0058
(1723389717.372369) can0 612#F122666669FFFFFF
(1723389717.377559) can0 130#45FFFDFFFF
(1723389717.402424) can0 6F1#120221F000000000
(1723389717.423213) can0 612#F1100E61F000038A
(1723389717.423870) can0 6F1#1230000000000000
(1723389717.424167) can0 612#F1210000316E0058
(1723389717.424442) can0 612#F122666669FFFFFF
(1723389717.451016) can0 6F1#120221F000000000
(1723389717.473237) can0 612#F1100E61F000038A
(1723389717.473864) can0 6F1#1230000000000000
(1723389717.474149) can0 612#F121000031450058
(1723389717.474442) can0 612#F122666669FFFFFF
(1723389717.477555) can0 130#45FFFDFFFF
(1723389717.500900) can0 6F1#120221F000000000
(1723389717.523191) can0 612#F1100E61F000038A
(1723389717.523839) can0 6F1#1230000000000000
(1723389717.524135) can0 612#F1210000316E0058
(1723389717.524409) can0 612#F122666669FFFFFF
(1723389717.551541) can0 6F1#120221F000000000
(1723389717.571206) can0 612#F1100E61F000038A
(1723389717.571834) can0 6F1#1230000000000000
(1723389717.572120) can0 612#F1210000316E0058
(1723389717.572414) can0 612#F122666669FFFFFF
(1723389717.577563) can0 130#45FFFDFFFF
(1723389717.600840) can0 6F1#120221F000000000
(1723389717.623182) can0 612#F1100E61F000038A
(1723389717.623841) can0 6F1#1230000000000000
(1723389717.624137) can0 612#F1210000316E0058
(1723389717.624414) can0 612#F122666669FFFFFF
(1723389717.651152) can0 6F1#120221F000000000
(1723389717.671211) can0 612#F1100E61F000038A
(1723389717.671834) can0 6F1#1230000000000000
(1723389717.672118) can0 612#F1210000316E0058
(1723389717.672410) can0 612#F122666669FFFFFF
(1723389717.677551) can0 130#45FFFDFFFF
(1723389717.702167) can0 6F1#120221F000000000
(1723389717.723204) can0 612#F1100E61F000038A
(1723389717.723840) can0 6F1#1230000000000000
(1723389717.724128) can0 612#F1210000316E0058
(1723389717.724404) can0 612#F122666669FFFFFF
(1723389717.750557) can0 6F1#120221F000000000
(1723389717.763204) can0 612#F1100E61F000038A
(1723389717.763843) can0 6F1#1230000000000000
(1723389717.764139) can0 612#F1210000316E0058
(1723389717.764378) can0 612#F122666669FFFFFF
(1723389717.777537) can0 130#45FFFDFFFF
(1723389717.802164) can0 6F1#120221F000000000
(1723389717.823200) can0 612#F1100E61F000038A
(1723389717.823844) can0 6F1#1230000000000000
(1723389717.824143) can0 612#F1210000316E0058
(1723389717.824424) can0 612#F122666669FFFFFF
(1723389717.877515) can0 130#45FFFDFFFF
(1723389717.882020) can0 6F1#120221F000000000
(1723389717.893212) can0 612#F1100E61F000038A
(1723389717.893838) can0 6F1#1230000000000000
(1723389717.894129) can0 612#F1210000316E0058
(1723389717.894425) can0 612#F122666669FFFFFF
(1723389717.951311) can0 6F1#120221F000000000
(1723389717.963184) can0 612#F1100E61F000038A
(1723389717.963841) can0 6F1#1230000000000000
(1723389717.964141) can0 612#F1210000316E0058
(1723389717.964381) can0 612#F122666669FFFFFF
(1723389717.977529) can0 130#45FFFDFFFF
(1723389718.000630) can0 6F1#120221F000000000
(1723389718.023224) can0 612#F1100E61F000038A
(1723389718.023852) can0 6F1#1230000000000000
(1723389718.024143) can0 612#F1210000316E0058
(1723389718.024436) can0 612#F122666669FFFFFF
(1723389718.050166) can0 6F1#120221F000000000
(1723389718.063159) can0 612#F1100E61F000038A
(1723389718.063842) can0 6F1#1230000000000000
(1723389718.064139) can0 612#F1210000316E0058
(1723389718.064387) can0 612#F122666669FFFFFF
(1723389718.077493) can0 130#45FFFDFFFF
(1723389718.100897) can0 6F1#120221F000000000
(1723389718.111194) can0 612#F1100E61F000038A
(1723389718.111836) can0 6F1#1230000000000000
(1723389718.112124) can0 612#F1210000316E0058
(1723389718.112400) can0 612#F122666669FFFFFF
(1723389718.150437) can0 6F1#120221F000000000
(1723389718.163185) can0 612#F1100E61F000038A
(1723389718.163842) can0 6F1#1230000000000000
(1723389718.164141) can0 612#F1210000316E0058
(1723389718.164384) can0 612#F122666669FFFFFF
(1723389718.177508) can0 130#45FFFDFFFF
(1723389718.200961) can0 6F1#120221F000000000
(1723389718.211238) can0 612#F1100E61F000038A
(1723389718.211863) can0 6F1#1230000000000000
(1723389718.212149) can0 612#F1210000316E0058
(1723389718.212443) can0 612#F122666669FFFFFF
(1723389718.249815) can0 6F1#120221F000000000
(1723389718.263212) can0 612#F1100E61F000038A
(1723389718.263859) can0 6F1#1230000000000000
(1723389718.264121) can0 612#F1210000316E0058
(1723389718.264363) can0 612#F122666669FFFFFF
(1723389718.277489) can0 130#45FFFDFFFF
(1723389718.298271) can0 6F1#120221F000000000
(1723389718.313189) can0 612#F1100E61F000038A
(1723389718.313853) can0 6F1#1230000000000000
(1723389718.314152) can0 612#F1210000316E0058
(1723389718.314391) can0 612#F122666669FFFFFF
(1723389718.348420) can0 6F1#120221F000000000
(1723389718.363214) can0 612#F1100E61F000038A
(1723389718.363851) can0 6F1#1230000000000000
(1723389718.364152) can0 612#F1210000316E0058
(1723389718.364423) can0 612#F122666669FFFFFF
(1723389718.377450) can0 130#45FFFDFFFF
(1723389718.477478) can0 130#45FFFDFFFF
(1723389718.577484) can0 130#45FFFDFFFF
(1723389718.677452) can0 130#45FFFDFFFF
(1723389718.777442) can0 130#45FFFDFFFF
(1723389718.877422) can0 130#45FFFDFFFF
(1723389718.977368) can0 130#45FFFDFFFF
(1723389719.077393) can0 130#45FFFDFFFF
(1723389719.177365) can0 130#45FFFDFFFF
(1723389719.277382) can0 130#45FFFDFFFF
(1723389719.377357) can0 130#45FFFDFFFF
(1723389719.477367) can0 130#45FFFDFFFF
(1723389719.577338) can0 130#45FFFDFFFF
(1723389719.677315) can0 130#45FFFDFFFF
(1723389719.777325) can0 130#45FFFDFFFF
(1723389719.877312) can0 130#45FFFDFFFF
(1723389719.977305) can0 130#45FFFDFFFF
(1723389720.077316) can0 130#45FFFDFFFF
(1723389720.177267) can0 130#45FFFDFFFF
(1723389720.277306) can0 130#45FFFDFFFF
(1723389720.377266) can0 130#45FFFDFFFF
(1723389720.477257) can0 130#45FFFDFFFF
(1723389720.577238) can0 130#45FFFDFFFF
(1723389720.677246) can0 130#45FFFDFFFF
(1723389720.777232) can0 130#45FFFDFFFF
(1723389720.877256) can0 130#45FFFDFFFF
(1723389720.977213) can0 130#45FFFDFFFF
(1723389721.077225) can0 130#45FFFDFFFF
(1723389721.177101) can0 130#45FFFDFFFF
(1723389721.277112) can0 130#45FFFDFFFF
(1723389721.377081) can0 130#45FFFDFFFF
(1723389721.477084) can0 130#45FFFDFFFF
(1723389721.577099) can0 130#45FFFDFFFF
(1723389721.677092) can0 130#45FFFDFFFF
(1723389721.777047) can0 130#45FFFDFFFF
(1723389721.877163) can0 130#45FFFDFFFF
(1723389721.977124) can0 130#45FFFDFFFF
(1723389722.077121) can0 130#45FFFDFFFF
(1723389722.177120) can0 130#45FFFDFFFF
(1723389722.277111) can0 130#45FFFDFFFF
(1723389722.377093) can0 130#45FFFDFFFF
(1723389722.477098) can0 130#45FFFDFFFF
(1723389722.577100) can0 130#45FFFDFFFF
(1723389722.677083) can0 130#45FFFDFFFF
(1723389722.777058) can0 130#45FFFDFFFF
(1723389722.877089) can0 130#45FFFDFFFF
(1723389722.977034) can0 130#45FFFDFFFF
(1723389723.077056) can0 130#45FFFDFFFF
(1723389723.177051) can0 130#45FFFDFFFF
(1723389723.277028) can0 130#45FFFDFFFF
(1723389723.377012) can0 130#45FFFDFFFF
(1723389723.477008) can0 130#45FFFDFFFF
(1723389723.576996) can0 130#45FFFDFFFF
(1723389723.677007) can0 130#45FFFDFFFF
(1723389723.776962) can0 130#45FFFDFFFF
(1723389723.877014) can0 130#45FFFDFFFF
(1723389723.976963) can0 130#45FFFDFFFF
(1723389724.076954) can0 130#45FFFDFFFF
(1723389724.176944) can0 130#45FFFDFFFF
(1723389724.276949) can0 130#45FFFDFFFF
(1723389724.376921) can0 130#45FFFDFFFF
(1723389724.476931) can0 130#45FFFDFFFF
(1723389724.576921) can0 130#45FFFDFFFF
(1723389724.676930) can0 130#45FFFDFFFF
(1723389724.776874) can0 130#45FFFDFFFF
(1723389724.876885) can0 130#45FFFDFFFF
(1723389724.976873) can0 130#45FFFDFFFF
(1723389725.076871) can0 130#45FFFDFFFF
(1723389725.176854) can0 130#45FFFDFFFF
(1723389725.276839) can0 130#45FFFDFFFF
(1723389725.376842) can0 130#45FFFDFFFF
(1723389725.476855) can0 130#45FFFDFFFF
(1723389725.576818) can0 130#45FFFDFFFF
(1723389725.676832) can0 130#45FFFDFFFF
(1723389725.776799) can0 130#45FFFDFFFF
(1723389725.876809) can0 130#45FFFDFFFF
(1723389725.976793) can0 130#45FFFDFFFF
(1723389726.076815) can0 130#45FFFDFFFF
(1723389726.176737) can0 130#45FFFDFFFF
(1723389726.276788) can0 130#45FFFDFFFF
(1723389726.376755) can0 130#45FFFDFFFF
(1723389726.476749) can0 130#45FFFDFFFF
(1723389726.576726) can0 130#45FFFDFFFF
(1723389726.676739) can0 130#45FFFDFFFF
(1723389726.776685) can0 130#45FFFDFFFF
(1723389726.876712) can0 130#45FFFDFFFF
(1723389726.976694) can0 130#45FFFDFFFF
(1723389727.076729) can0 130#45FFFDFFFF
(1723389727.176691) can0 130#45FFFDFFFF
(1723389727.276684) can0 130#45FFFDFFFF
(1723389727.376677) can0 130#45FFFDFFFF
(1723389727.476670) can0 130#45FFFDFFFF
(1723389727.576672) can0 130#45FFFDFFFF
(1723389727.676643) can0 130#45FFFDFFFF
(1723389727.776617) can0 130#45FFFDFFFF
(1723389727.876642) can0 130#45FFFDFFFF
(1723389727.976615) can0 130#45FFFDFFFF
(1723389728.076597) can0 130#45FFFDFFFF
(1723389728.176605) can0 130#45FFFDFFFF
(1723389728.276613) can0 130#45FFFDFFFF
(1723389728.376561) can0 130#45FFFDFFFF
(1723389728.476566) can0 130#45FFFDFFFF
(1723389728.576558) can0 130#45FFFDFFFF
(1723389728.676571) can0 130#45FFFDFFFF
(1723389728.776551) can0 130#45FFFDFFFF
(1723389728.876545) can0 130#45FFFDFFFF
(1723389728.976530) can0 130#45FFFDFFFF
(1723389729.076545) can0 130#45FFFDFFFF
(1723389729.176513) can0 130#45FFFDFFFF
(1723389729.276495) can0 130#45FFFDFFFF
(1723389729.376522) can0 130#45FFFDFFFF
(1723389729.476517) can0 130#45FFFDFFFF
(1723389729.576482) can0 130#45FFFDFFFF
(1723389729.676485) can0 130#45FFFDFFFF
(1723389729.776446) can0 130#45FFFDFFFF
(1723389729.876453) can0 130#45FFFDFFFF
(1723389729.976443) can0 130#45FFFDFFFF
(1723389730.076425) can0 130#45FFFDFFFF
(1723389730.176434) can0 130#45FFFDFFFF
(1723389730.276478) can0 130#45FFFDFFFF
(1723389730.376397) can0 130#45FFFDFFFF
(1723389730.476417) can0 130#45FFFDFFFF
(1723389730.576396) can0 130#45FFFDFFFF
(1723389730.676391) can0 130#45FFFDFFFF
(1723389730.776374) can0 130#45FFFDFFFF
(1723389730.876370) can0 130#45FFFDFFFF
(1723389730.976353) can0 130#45FFFDFFFF
(1723389731.076346) can0 130#45FFFDFFFF
(1723389731.176347) can0 130#45FFFDFFFF
(1723389731.276350) can0 130#45FFFDFFFF
(1723389731.376308) can0 130#45FFFDFFFF
(1723389731.476336) can0 130#45FFFDFFFF
(1723389731.576308) can0 130#45FFFDFFFF
(1723389731.676320) can0 130#45FFFDFFFF
(1723389731.776284) can0 130#45FFFDFFFF
(1723389731.876243) can0 130#45FFFDFFFF
(1723389731.976275) can0 130#45FFFDFFFF
(1723389732.076292) can0 130#45FFFDFFFF
(1723389732.176249) can0 130#45FFFDFFFF
(1723389732.276259) can0 130#45FFFDFFFF
(1723389732.376245) can0 130#45FFFDFFFF
(1723389732.476230) can0 130#45FFFDFFFF
(1723389732.576228) can0 130#45FFFDFFFF
(1723389732.676221) can0 130#45FFFDFFFF
(1723389732.776202) can0 130#45FFFDFFFF
(1723389732.876195) can0 130#45FFFDFFFF
(1723389732.976210) can0 130#45FFFDFFFF
(1723389733.076184) can0 130#45FFFDFFFF
(1723389733.176156) can0 130#45FFFDFFFF
(1723389733.276179) can0 130#45FFFDFFFF
(1723389733.376143) can0 130#45FFFDFFFF
(1723389733.476141) can0 130#45FFFDFFFF
(1723389733.576141) can0 130#45FFFDFFFF
(1723389733.676128) can0 130#45FFFDFFFF
(1723389733.776121) can0 130#45FFFDFFFF
(1723389733.876132) can0 130#45FFFDFFFF
(1723389733.976093) can0 130#45FFFDFFFF
(1723389734.076100) can0 130#45FFFDFFFF
(1723389734.176092) can0 130#45FFFDFFFF
(1723389734.276081) can0 130#45FFFDFFFF
(1723389734.376072) can0 130#45FFFDFFFF
(1723389734.476073) can0 130#45FFFDFFFF
(1723389734.576055) can0 130#45FFFDFFFF
(1723389734.676053) can0 130#45FFFDFFFF
(1723389734.776031) can0 130#45FFFDFFFF
(1723389734.876030) can0 130#45FFFDFFFF
(1723389734.976009) can0 130#45FFFDFFFF
(1723389735.076018) can0 130#45FFFDFFFF
(1723389735.176004) can0 130#45FFFDFFFF
(1723389735.275999) can0 130#45FFFDFFFF
(1723389735.375985) can0 130#45FFFDFFFF
(1723389735.475959) can0 130#45FFFDFFFF
(1723389735.575970) can0 130#45FFFDFFFF
(1723389735.676000) can0 130#45FFFDFFFF
(1723389735.712101) can0 6F1#12032CF004000000
(1723389735.725199) can0 612#F1026CF0FFFFFFFF
(1723389735.767962) can0 6F1#1210382CF0020101
(1723389735.769271) can0 612#F1300000FFFFFFFF
(1723389735.770118) can0 6F1#1221580C01020202
(1723389735.770419) can0 6F1#122258F001020402
(1723389735.770668) can0 6F1#12235ABC01020602
(1723389735.771165) can0 6F1#122458DD01020801
(1723389735.771588) can0 6F1#1225580D01020901
(1723389735.772022) can0 6F1#1226440201020A01
(1723389735.772458) can0 6F1#1227581F01020B01
(1723389735.772886) can0 6F1#1228580501020C01
(1723389735.773327) can0 6F1#1229580F01000000
(1723389735.775958) can0 130#45FFFDFFFF
(1723389735.805205) can0 612#F1026CF0FFFFFFFF
(1723389735.863613) can0 6F1#120221F000000000
(1723389735.876091) can0 130#45FFFDFFFF
(1723389735.881393) can0 612#F1100E61F000038A
(1723389735.882057) can0 6F1#1230000000000000
(1723389735.882359) can0 612#F1210000316E0058
(1723389735.882596) can0 612#F122666669FFFFFF
(1723389735.913132) can0 6F1#120221F000000000
(1723389735.931433) can0 612#F1100E61F000038A
(1723389735.932060) can0 6F1#1230000000000000
(1723389735.932345) can0 612#F1210000316E0058
(1723389735.932641) can0 612#F122666669FFFFFF
(1723389735.963141) can0 6F1#120221F000000000
(1723389735.976047) can0 130#45FFFDFFFF
(1723389735.981374) can0 612#F1100E61F000038A
(1723389735.982060) can0 6F1#1230000000000000
(1723389735.982360) can0 612#F1210000316E0058
(1723389735.982597) can0 612#F122666669FFFFFF
(1723389736.013315) can0 6F1#120221F000000000
(1723389736.031430) can0 612#F1100E61F000038A
(1723389736.032062) can0 6F1#1230000000000000
(1723389736.032350) can0 612#F121000031450058
(1723389736.032643) can0 612#F122666669FFFFFF
(1723389736.071845) can0 6F1#120221F000000000
(1723389736.075916) can0 130#45FFFDFFFF
(1723389736.091402) can0 612#F1100E61F000038A
(1723389736.092060) can0 6F1#1230000000000000
(1723389736.092357) can0 612#F1210000316E0058
(1723389736.092598) can0 612#F122666669FFFFFF
