(1708736730.617461) can0 6F1#120221F000000000
(1708736730.632890) can0 612#F1100E61F000464F
(1708736730.633536) can0 6F1#1230000000000000
(1708736730.633845) can0 612#F12130F3392D5000
(1708736730.634093) can0 612#F122004F00FFFFFF
(1708736730.652336) can0 130#45FFFDFFFF
(1708736730.667235) can0 6F1#120221F000000000
(1708736730.682733) can0 612#F1100E61F000464F
(1708736730.683391) can0 6F1#1230000000000000
(1708736730.683650) can0 612#F12130F3392D5000
(1708736730.683895) can0 612#F122004F00FFFFFF
(1708736730.716964) can0 6F1#120221F000000000
(1708736730.732819) can0 612#F1100E61F000464F
(1708736730.733446) can0 6F1#1230000000000000
(1708736730.733707) can0 612#F12130F3392D5000
(1708736730.733953) can0 612#F122004F00FFFFFF
(1708736730.762314) can0 130#45FFFDFFFF
(1708736730.767192) can0 6F1#120221F000000000
(1708736730.782837) can0 612#F1100E61F000464F
(1708736730.783483) can0 6F1#1230000000000000
(1708736730.783766) can0 612#F12130F339255000
(1708736730.784017) can0 612#F122004F00FFFFFF
(1708736730.816887) can0 6F1#120221F000000000
(1708736730.832804) can0 612#F1100E61F000464F
(1708736730.833446) can0 6F1#1230000000000000
(1708736730.833728) can0 612#F12130F339255000
(1708736730.833977) can0 612#F122004F00FFFFFF
(1708736730.852386) can0 130#45FFFDFFFF
(1708736730.866500) can0 6F1#120221F000000000
(1708736730.882788) can0 612#F1100E61F000464F
(1708736730.883440) can0 6F1#1230000000000000
(1708736730.883721) can0 612#F12130F3392D5000
(1708736730.884002) can0 612#F122004F00FFFFFF
(1708736730.916352) can0 6F1#120221F000000000
(1708736730.934219) can0 612#F1100E61F000464F
(1708736730.934866) can0 6F1#1230000000000000
(1708736730.935129) can0 612#F12130F3392D5000
(1708736730.935381) can0 612#F122004F00FFFFFF
(1708736730.952362) can0 130#45FFFDFFFF
(1708736730.965987) can0 6F1#120221F000000000
(1708736730.984802) can0 612#F1100E61F000464F
(1708736730.985420) can0 6F1#1230000000000000
(1708736730.985707) can0 612#F12130F3392D5000
(1708736730.985987) can0 612#F122004F00FFFFFF
(1708736731.015520) can0 6F1#120221F000000000
(1708736731.034210) can0 612#F1100E61F000464F
(1708736731.034854) can0 6F1#1230000000000000
(1708736731.035130) can0 612#F12130F3392D5000
(1708736731.035378) can0 612#F122004F00FFFFFF
(1708736731.052347) can0 130#45FFFDFFFF
(1708736731.066069) can0 6F1#120221F000000000
(1708736731.082779) can0 612#F1100E61F000464E
(1708736731.083412) can0 6F1#1230000000000000
(1708736731.083671) can0 612#F12130F3392D5000
(1708736731.083916) can0 612#F122004E00FFFFFF
(1708736731.115814) can0 6F1#120221F000000000
(1708736731.134171) can0 612#F1100E61F000464E
(1708736731.134827) can0 6F1#1230000000000000
(1708736731.135090) can0 612#F12130F3392D5000
(1708736731.135336) can0 612#F122004E00FFFFFF
(1708736731.152359) can0 130#45FFFDFFFF
(1708736731.166294) can0 6F1#120221F000000000
(1708736731.184785) can0 612#F1100E61F000464F
(1708736731.185430) can0 6F1#1230000000000000
(1708736731.185713) can0 612#F12130F3392D5000
(1708736731.185966) can0 612#F122004F00FFFFFF
(1708736731.215774) can0 6F1#120221F000000000
(1708736731.232785) can0 612#F1100E61F000464F
(1708736731.233433) can0 6F1#1230000000000000
(1708736731.233749) can0 612#F12130F339255000
(1708736731.234009) can0 612#F122004F00FFFFFF
(1708736731.252395) can0 130#45FFFDFFFF
(1708736731.265418) can0 6F1#120221F000000000
(1708736731.282821) can0 612#F1100E61F000464E
(1708736731.283448) can0 6F1#1230000000000000
(1708736731.283744) can0 612#F12130F3392D5000
(1708736731.284023) can0 612#F122004E00FFFFFF
(1708736731.316218) can0 6F1#120221F000000000
(1708736731.334258) can0 612#F1100E61F000464E
(1708736731.334904) can0 6F1#1230000000000000
(1708736731.335164) can0 612#F12130F3392D5000
(1708736731.335412) can0 612#F122004E00FFFFFF
(1708736731.352387) can0 130#45FFFDFFFF
(1708736731.365932) can0 6F1#120221F000000000
(1708736731.384750) can0 612#F1100E61F000464F
(1708736731.385453) can0 6F1#1230000000000000
(1708736731.385733) can0 612#F12130F3392D5000
(1708736731.385984) can0 612#F122004F00FFFFFF
(1708736731.414759) can0 6F1#120221F000000000
(1708736731.424509) can0 612#F1100E61F000464F
(1708736731.425151) can0 6F1#1230000000000000
(1708736731.425412) can0 612#F12130F3392D5000
(1708736731.425662) can0 612#F122004F00FFFFFF
(1708736731.452428) can0 130#45FFFDFFFF
(1708736731.465129) can0 6F1#120221F000000000
(1708736731.472931) can0 612#F1100E61F000464F
(1708736731.473566) can0 6F1#1230000000000000
(1708736731.473860) can0 612#F12130F3392D5000
(1708736731.474108) can0 612#F122004F00FFFFFF
(1708736731.515292) can0 6F1#120221F000000000
(1708736731.524533) can0 612#F1100E61F000464E
(1708736731.525194) can0 6F1#1230000000000000
(1708736731.525490) can0 612#F12130F3392D5000
(1708736731.525734) can0 612#F122004E00FFFFFF
(1708736731.552356) can0 130#45FFFDFFFF
(1708736731.564744) can0 6F1#120221F000000000
(1708736731.574212) can0 612#F1100E61F000464E
(1708736731.574851) can0 6F1#1230000000000000
(1708736731.575146) can0 612#F12130F3392D5000
(1708736731.575403) can0 612#F122004E00FFFFFF
(1708736731.614787) can0 6F1#120221F000000000
(1708736731.624561) can0 612#F1100E61F000464F
(1708736731.625203) can0 6F1#1230000000000000
(1708736731.625461) can0 612#F12130F3392D5000
(1708736731.625723) can0 612#F122004F00FFFFFF
(1708736731.652398) can0 130#45FFFDFFFF
(1708736731.664837) can0 6F1#120221F000000000
(1708736731.674219) can0 612#F1100E61F000464F
(1708736731.674856) can0 6F1#1230000000000000
(1708736731.675149) can0 612#F12130F3392D5000
(1708736731.675433) can0 612#F122004F00FFFFFF
(1708736731.714755) can0 6F1#120221F000000000
(1708736731.724744) can0 612#F1100E61F000464F
(1708736731.725390) can0 6F1#1230000000000000
(1708736731.725638) can0 612#F12130F339225000
(1708736731.725886) can0 612#F122004F00FFFFFF
(1708736731.752351) can0 130#45FFFDFFFF
(1708736731.764331) can0 6F1#120221F000000000
(1708736731.774244) can0 612#F1100E61F000464F
(1708736731.774890) can0 6F1#1230000000000000
(1708736731.775183) can0 612#F12130F3392D5000
(1708736731.775429) can0 612#F122004F00FFFFFF
(1708736731.814215) can0 6F1#120221F000000000
(1708736731.824532) can0 612#F1100E61F000464F
(1708736731.825196) can0 6F1#1230000000000000
(1708736731.825454) can0 612#F12130F3392D5000
(1708736731.825699) can0 612#F122004F00FFFFFF
(1708736731.852448) can0 130#45FFFDFFFF
(1708736731.863744) can0 6F1#120221F000000000
(1708736731.874231) can0 612#F1100E61F000464F
(1708736731.874868) can0 6F1#1230000000000000
(1708736731.875164) can0 612#F12130F3392D5000
(1708736731.875444) can0 612#F122004F00FFFFFF
(1708736731.914110) can0 6F1#120221F000000000
(1708736731.924594) can0 612#F1100E61F000464F
(1708736731.925241) can0 6F1#1230000000000000
(1708736731.925500) can0 612#F12130F3392D5000
(1708736731.925745) can0 612#F122004F00FFFFFF
(1708736731.952357) can0 130#45FFFDFFFF
(1708736731.963749) can0 6F1#120221F000000000
(1708736731.974239) can0 612#F1100E61F000464F
(1708736731.974879) can0 6F1#1230000000000000
(1708736731.975177) can0 612#F12130F3392D5000
(1708736731.975425) can0 612#F122004F00FFFFFF
(1708736732.013504) can0 6F1#120221F000000000
(1708736732.024511) can0 612#F1100E61F000464F
(1708736732.025171) can0 6F1#1230000000000000
(1708736732.025416) can0 612#F12130F3392D5000
(1708736732.025661) can0 612#F122004F00FFFFFF
(1708736732.052428) can0 130#45FFFDFFFF
(1708736732.063023) can0 6F1#120221F000000000
(1708736732.074503) can0 612#F1100E61F000464F
(1708736732.075146) can0 6F1#1230000000000000
(1708736732.075403) can0 612#F12130F3392D5000
(1708736732.075650) can0 612#F122004F00FFFFFF
(1708736732.113443) can0 6F1#120221F000000000
(1708736732.124574) can0 612#F1100E61F000464F
(1708736732.125219) can0 6F1#1230000000000000
(1708736732.125464) can0 612#F12130F3392D5000
(1708736732.125719) can0 612#F122004F00FFFFFF
(1708736732.152380) can0 130#45FFFDFFFF
(1708736732.163879) can0 6F1#120221F000000000
(1708736732.174214) can0 612#F1100E61F000464F
(1708736732.174867) can0 6F1#1230000000000000
(1708736732.175165) can0 612#F12130F3392D5000
(1708736732.175415) can0 612#F122004F00FFFFFF
(1708736732.213144) can0 6F1#120221F000000000
(1708736732.224567) can0 612#F1100E61F000464F
(1708736732.225207) can0 6F1#1230000000000000
(1708736732.225502) can0 612#F12130F3392D5000
(1708736732.225748) can0 612#F122004F00FFFFFF
(1708736732.252449) can0 130#45FFFDFFFF
(1708736732.262904) can0 6F1#120221F000000000
(1708736732.274245) can0 612#F1100E61F000464F
(1708736732.274873) can0 6F1#1230000000000000
(1708736732.275161) can0 612#F12130F3392D5000
(1708736732.275402) can0 612#F122004F00FFFFFF
(1708736732.312934) can0 6F1#120221F000000000
(1708736732.324584) can0 612#F1100E61F000464F
(1708736732.325243) can0 6F1#1230000000000000
(1708736732.325491) can0 612#F12130F3392D5000
(1708736732.325741) can0 612#F122004F00FFFFFF
(1708736732.352403) can0 130#45FFFDFFFF
(1708736732.363279) can0 6F1#120221F000000000
(1708736732.374261) can0 612#F1100E61F000464F
(1708736732.374912) can0 6F1#1230000000000000
(1708736732.375157) can0 612#F12130F3392D5000
(1708736732.375406) can0 612#F122004F00FFFFFF
(1708736732.413173) can0 6F1#120221F000000000
(1708736732.424586) can0 612#F1100E61F000464E
(1708736732.425239) can0 6F1#1230000000000000
(1708736732.425537) can0 612#F12130F3392D5000
(1708736732.425780) can0 612#F122004E00FFFFFF
(1708736732.462262) can0 6F1#120221F000000000
(1708736732.462550) can0 130#45FFFDFFFF
(1708736732.474210) can0 612#F1100E61F000464E
(1708736732.474868) can0 6F1#1230000000000000
(1708736732.475161) can0 612#F12130F3392D5000
(1708736732.475445) can0 612#F122004E00FFFFFF
(1708736732.512511) can0 6F1#120221F000000000
(1708736732.524586) can0 612#F1100E61F000464F
(1708736732.525232) can0 6F1#1230000000000000
(1708736732.525480) can0 612#F12130F3392D5000
(1708736732.525738) can0 612#F122004F00FFFFFF
(1708736732.552400) can0 130#45FFFDFFFF
(1708736732.562901) can0 6F1#120221F000000000
(1708736732.574227) can0 612#F1100E61F000464F
(1708736732.574891) can0 6F1#1230000000000000
(1708736732.575184) can0 612#F12130F339255000
(1708736732.575432) can0 612#F122004F00FFFFFF
(1708736732.612272) can0 6F1#120221F000000000
(1708736732.624571) can0 612#F1100E61F000464F
(1708736732.625212) can0 6F1#1230000000000000
(1708736732.625508) can0 612#F12130F3392D5000
(1708736732.625752) can0 612#F122004F00FFFFFF
(1708736732.652461) can0 130#45FFFDFFFF
(1708736732.661837) can0 6F1#120221F000000000
(1708736732.674230) can0 612#F1100E61F000464F
(1708736732.674890) can0 6F1#1230000000000000
(1708736732.675184) can0 612#F12130F3392D5000
(1708736732.675469) can0 612#F122004F00FFFFFF
(1708736732.711796) can0 6F1#120221F000000000
(1708736732.724607) can0 612#F1100E61F000464F
(1708736732.725253) can0 6F1#1230000000000000
(1708736732.725512) can0 612#F12130F339255000
(1708736732.725761) can0 612#F122004F00FFFFFF
(1708736732.762201) can0 6F1#120221F000000000
(1708736732.762493) can0 130#45FFFDFFFF
(1708736732.774221) can0 612#F1100E61F000464F
(1708736732.774885) can0 6F1#1230000000000000
(1708736732.775173) can0 612#F12130F3392D5000
(1708736732.775456) can0 612#F122004F00FFFFFF
(1708736732.812062) can0 6F1#120221F000000000
(1708736732.824590) can0 612#F1100E61F000464F
(1708736732.825238) can0 6F1#1230000000000000
(1708736732.825486) can0 612#F12130F3392D5000
(1708736732.825732) can0 612#F122004F00FFFFFF
(1708736732.852480) can0 130#45FFFDFFFF
(1708736732.862435) can0 6F1#120221F000000000
(1708736732.874222) can0 612#F1100E61F000464F
(1708736732.874880) can0 6F1#1230000000000000
(1708736732.875173) can0 612#F12130F3392D5000
(1708736732.875468) can0 612#F122004F00FFFFFF
(1708736732.911989) can0 6F1#120221F000000000
(1708736732.924603) can0 612#F1100E61F000464F
(1708736732.925257) can0 6F1#1230000000000000
(1708736732.925519) can0 612#F12130F3392D5000
(1708736732.925769) can0 612#F122004F00FFFFFF
(1708736732.952413) can0 130#45FFFDFFFF
(1708736732.961274) can0 6F1#120221F000000000
(1708736732.974260) can0 612#F1100E61F000464F
(1708736732.974908) can0 6F1#1230000000000000
(1708736732.975155) can0 612#F12130F3392D5000
(1708736732.975400) can0 612#F122004F00FFFFFF
(1708736733.011835) can0 6F1#120221F000000000
(1708736733.024554) can0 612#F1100E61F000464F
(1708736733.025195) can0 6F1#1230000000000000
(1708736733.025490) can0 612#F12130F3392D5000
(1708736733.025737) can0 612#F122004F00FFFFFF
(1708736733.052436) can0 130#45FFFDFFFF
(1708736733.061448) can0 6F1#120221F000000000
(1708736733.074238) can0 612#F1100E61F000464F
(1708736733.074876) can0 6F1#1230000000000000
(1708736733.075173) can0 612#F12130F3392D5000
(1708736733.075422) can0 612#F122004F00FFFFFF
(1708736733.111380) can0 6F1#120221F000000000
(1708736733.124610) can0 612#F1100E61F000464F
(1708736733.125258) can0 6F1#1230000000000000
(1708736733.125516) can0 612#F12130F3392D5000
(1708736733.125777) can0 612#F122004F00FFFFFF
(1708736733.152426) can0 130#45FFFDFFFF
(1708736733.160704) can0 6F1#120221F000000000
(1708736733.174259) can0 612#F1100E61F000464F
(1708736733.174910) can0 6F1#1230000000000000
(1708736733.175206) can0 612#F12130F3392D5000
(1708736733.175453) can0 612#F122004F00FFFFFF
(1708736733.211017) can0 6F1#120221F000000000
(1708736733.224575) can0 612#F1100E61F000464F
(1708736733.225220) can0 6F1#1230000000000000
(1708736733.225502) can0 612#F12130F3392D5000
(1708736733.225782) can0 612#F122004F00FFFFFF
(1708736733.252432) can0 130#45FFFDFFFF
(1708736733.261218) can0 6F1#120221F000000000
(1708736733.274262) can0 612#F1100E61F000464F
(1708736733.274909) can0 6F1#1230000000000000
(1708736733.275192) can0 612#F12130F3392D5000
(1708736733.275470) can0 612#F122004F00FFFFFF
(1708736733.311399) can0 6F1#120221F000000000
(1708736733.324617) can0 612#F1100E61F000464F
(1708736733.325262) can0 6F1#1230000000000000
(1708736733.325523) can0 612#F12130F3392D5000
(1708736733.325783) can0 612#F122004F00FFFFFF
(1708736733.352405) can0 130#45FFFDFFFF
(1708736733.360224) can0 6F1#120221F000000000
(1708736733.374262) can0 612#F1100E61F000464F
(1708736733.374906) can0 6F1#1230000000000000
(1708736733.375185) can0 612#F12130F3392D5000
(1708736733.375467) can0 612#F122004F00FFFFFF
(1708736733.411411) can0 6F1#120221F000000000
(1708736733.424547) can0 612#F1100E61F000464F
(1708736733.425214) can0 6F1#1230000000000000
(1708736733.425514) can0 612#F12130F3392D5000
(1708736733.425758) can0 612#F122004F00FFFFFF
(1708736733.452454) can0 130#45FFFDFFFF
(1708736733.460173) can0 6F1#120221F000000000
(1708736733.474273) can0 612#F1100E61F000464F
(1708736733.474917) can0 6F1#1230000000000000
(1708736733.475179) can0 612#F12130F3392D5000
(1708736733.475423) can0 612#F122004F00FFFFFF
(1708736733.510537) can0 6F1#120221F000000000
(1708736733.524617) can0 612#F1100E61F000464F
(1708736733.525259) can0 6F1#1230000000000000
(1708736733.525516) can0 612#F12130F3392D5000
(1708736733.525765) can0 612#F122004F00FFFFFF
(1708736733.552413) can0 130#45FFFDFFFF
(1708736733.560882) can0 6F1#120221F000000000
(1708736733.574275) can0 612#F1100E61F000464F
(1708736733.574921) can0 6F1#1230000000000000
(1708736733.575180) can0 612#F12130F339255000
(1708736733.575423) can0 612#F122004F00FFFFFF
(1708736733.610567) can0 6F1#120221F000000000
(1708736733.624584) can0 612#F1100E61F000464F
(1708736733.625249) can0 6F1#1230000000000000
(1708736733.625495) can0 612#F12130F3392D5000
(1708736733.625739) can0 612#F122004F00FFFFFF
(1708736733.652456) can0 130#45FFFDFFFF
(1708736733.659879) can0 6F1#120221F000000000
(1708736733.674265) can0 612#F1100E61F000464F
(1708736733.674889) can0 6F1#1230000000000000
(1708736733.675176) can0 612#F12130F3392D5000
(1708736733.675477) can0 612#F122004F00FFFFFF
(1708736733.709575) can0 6F1#120221F000000000
(1708736733.724744) can0 612#F1100E61F000464E
(1708736733.725384) can0 6F1#1230000000000000
(1708736733.725667) can0 612#F12130F3392D5000
(1708736733.725950) can0 612#F122004E00FFFFFF
(1708736733.752408) can0 130#45FFFDFFFF
(1708736733.759780) can0 6F1#120221F000000000
(1708736733.774283) can0 612#F1100E61F000464E
(1708736733.774898) can0 6F1#1230000000000000
(1708736733.775181) can0 612#F12130F3392D5000
(1708736733.775484) can0 612#F122004E00FFFFFF
(1708736733.809780) can0 6F1#120221F000000000
(1708736733.824602) can0 612#F1100E61F000464F
(1708736733.825247) can0 6F1#1230000000000000
(1708736733.825493) can0 612#F12130F3392D5000
(1708736733.825742) can0 612#F122004F00FFFFFF
(1708736733.852462) can0 130#45FFFDFFFF
(1708736733.859781) can0 6F1#120221F000000000
(1708736733.874291) can0 612#F1100E61F000464F
(1708736733.874916) can0 6F1#1230000000000000
(1708736733.875201) can0 612#F12130F339255000
(1708736733.875518) can0 612#F122004F00FFFFFF
(1708736733.908787) can0 6F1#120221F000000000
(1708736733.924615) can0 612#F1100E61F000464F
(1708736733.925266) can0 6F1#1230000000000000
(1708736733.925547) can0 612#F12130F3392D5000
(1708736733.925826) can0 612#F122004F00FFFFFF
(1708736733.952395) can0 130#45FFFDFFFF
(1708736733.959665) can0 6F1#120221F000000000
(1708736733.974269) can0 612#F1100E61F000464F
(1708736733.974924) can0 6F1#1230000000000000
(1708736733.975171) can0 612#F12130F3392D5000
(1708736733.975419) can0 612#F122004F00FFFFFF
(1708736734.009677) can0 6F1#120221F000000000
(1708736734.024583) can0 612#F1100E61F000464F
(1708736734.025222) can0 6F1#1230000000000000
(1708736734.025517) can0 612#F12130F3392D5000
(1708736734.025774) can0 612#F122004F00FFFFFF
(1708736734.052447) can0 130#45FFFDFFFF
(1708736734.059244) can0 6F1#120221F000000000
(1708736734.074285) can0 612#F1100E61F000464F
(1708736734.074931) can0 6F1#1230000000000000
(1708736734.075176) can0 612#F12130F3392D5000
(1708736734.075423) can0 612#F122004F00FFFFFF
(1708736734.108914) can0 6F1#120221F000000000
(1708736734.124585) can0 612#F1100E61F000464F
(1708736734.125235) can0 6F1#1230000000000000
(1708736734.125516) can0 612#F12130F3392D5000
(1708736734.125788) can0 612#F122004F00FFFFFF
(1708736734.152427) can0 130#45FFFDFFFF
(1708736734.159124) can0 6F1#120221F000000000
(1708736734.174293) can0 612#F1100E61F000464F
(1708736734.174944) can0 6F1#1230000000000000
(1708736734.175242) can0 612#F12130F3392D5000
(1708736734.175536) can0 612#F122004F00FFFFFF
(1708736734.209343) can0 6F1#120221F000000000
(1708736734.224613) can0 612#F1100E61F000464F
(1708736734.225266) can0 6F1#1230000000000000
(1708736734.225512) can0 612#F12130F3392D5000
(1708736734.225771) can0 612#F122004F00FFFFFF
(1708736734.252437) can0 130#45FFFDFFFF
(1708736734.258131) can0 6F1#120221F000000000
(1708736734.274284) can0 612#F1100E61F000464F
(1708736734.274935) can0 6F1#1230000000000000
(1708736734.275193) can0 612#F12130F3392D5000
(1708736734.275441) can0 612#F122004F00FFFFFF
(1708736734.308607) can0 6F1#120221F000000000
(1708736734.324647) can0 612#F1100E61F000464F
(1708736734.325293) can0 6F1#1230000000000000
(1708736734.325540) can0 612#F12130F3392D5000
(1708736734.325780) can0 612#F122004F00FFFFFF
(1708736734.352400) can0 130#45FFFDFFFF
(1708736734.359082) can0 6F1#120221F000000000
(1708736734.374553) can0 612#F1100E61F000464F
(1708736734.375198) can0 6F1#1230000000000000
(1708736734.375458) can0 612#F12130F3392D5000
(1708736734.375716) can0 612#F122004F00FFFFFF
(1708736734.407905) can0 6F1#120221F000000000
(1708736734.424612) can0 612#F1100E61F000464E
(1708736734.425247) can0 6F1#1230000000000000
(1708736734.425537) can0 612#F12130F339255000
(1708736734.425816) can0 612#F122004E00FFFFFF
(1708736734.452459) can0 130#45FFFDFFFF
(1708736734.458401) can0 6F1#120221F000000000
(1708736734.474309) can0 612#F1100E61F000464E
(1708736734.474954) can0 6F1#1230000000000000
(1708736734.475212) can0 612#F12130F3392D5000
(1708736734.475461) can0 612#F122004E00FFFFFF
(1708736734.507647) can0 6F1#120221F000000000
(1708736734.524645) can0 612#F1100E61F000464F
(1708736734.525296) can0 6F1#1230000000000000
(1708736734.525542) can0 612#F12130F3392D5000
(1708736734.525783) can0 612#F122004F00FFFFFF
(1708736734.552447) can0 130#45FFFDFFFF
(1708736734.557352) can0 6F1#120221F000000000
(1708736734.574285) can0 612#F1100E61F000464F
(1708736734.574936) can0 6F1#1230000000000000
(1708736734.575180) can0 612#F12130F3392D5000
(1708736734.575427) can0 612#F122004F00FFFFFF
(1708736734.608136) can0 6F1#120221F000000000
(1708736734.624622) can0 612#F1100E61F000464F
(1708736734.625267) can0 6F1#1230000000000000
(1708736734.625526) can0 612#F12130F3392D5000
(1708736734.625776) can0 612#F122004F00FFFFFF
(1708736734.652485) can0 130#45FFFDFFFF
(1708736734.657843) can0 6F1#120221F000000000
(1708736734.674307) can0 612#F1100E61F000464F
(1708736734.674960) can0 6F1#1230000000000000
(1708736734.675211) can0 612#F12130F339255000
(1708736734.675459) can0 612#F122004F00FFFFFF
(1708736734.708159) can0 6F1#120221F000000000
(1708736734.724599) can0 612#F1100E61F000464F
(1708736734.725246) can0 6F1#1230000000000000
(1708736734.725528) can0 612#F12130F3392D5000
(1708736734.725803) can0 612#F122004F00FFFFFF
(1708736734.757520) can0 6F1#120221F000000000
(1708736734.762409) can0 130#45FFFDFFFF
(1708736734.774312) can0 612#F1100E61F000464F
(1708736734.774959) can0 6F1#1230000000000000
(1708736734.775209) can0 612#F12130F3392D5000
(1708736734.775455) can0 612#F122004F00FFFFFF
(1708736734.808262) can0 6F1#120221F000000000
(1708736734.824649) can0 612#F1100E61F000464E
(1708736734.825298) can0 6F1#1230000000000000
(1708736734.825580) can0 612#F12130F3392D5000
(1708736734.825863) can0 612#F122004E00FFFFFF
(1708736734.852455) can0 130#45FFFDFFFF
(1708736734.856642) can0 6F1#120221F000000000
(1708736734.874296) can0 612#F1100E61F000464E
(1708736734.874937) can0 6F1#1230000000000000
(1708736734.875192) can0 612#F12130F3392D5000
(1708736734.875438) can0 612#F122004E00FFFFFF
(1708736734.907819) can0 6F1#120221F000000000
(1708736734.924654) can0 612#F1100E61F000464E
(1708736734.925291) can0 6F1#1230000000000000
(1708736734.925537) can0 612#F12130F3392D5000
(1708736734.925777) can0 612#F122004E00FFFFFF
(1708736734.952442) can0 130#45FFFDFFFF
(1708736734.957928) can0 6F1#120221F000000000
(1708736734.974313) can0 612#F1100E61F000464E
(1708736734.974953) can0 6F1#1230000000000000
(1708736734.975210) can0 612#F12130F3392D5000
(1708736734.975471) can0 612#F122004E00FFFFFF
(1708736735.006920) can0 6F1#120221F000000000
(1708736735.024612) can0 612#F1100E61F000464F
(1708736735.025252) can0 6F1#1230000000000000
(1708736735.025513) can0 612#F12130F3392D5000
(1708736735.025755) can0 612#F122004F00FFFFFF
(1708736735.052465) can0 130#45FFFDFFFF
(1708736735.056794) can0 6F1#120221F000000000
(1708736735.074300) can0 612#F1100E61F000464F
(1708736735.074961) can0 6F1#1230000000000000
(1708736735.075258) can0 612#F12130F339255000
(1708736735.075502) can0 612#F122004F00FFFFFF
(1708736735.107387) can0 6F1#120221F000000000
(1708736735.124674) can0 612#F1100E61F000464F
(1708736735.125317) can0 6F1#1230000000000000
(1708736735.125563) can0 612#F12130F3392D5000
(1708736735.125803) can0 612#F122004F00FFFFFF
(1708736735.152466) can0 130#45FFFDFFFF
(1708736735.156286) can0 6F1#120221F000000000
(1708736735.174296) can0 612#F1100E61F000464F
(1708736735.174943) can0 6F1#1230000000000000
(1708736735.175204) can0 612#F12130F339255000
(1708736735.175451) can0 612#F122004F00FFFFFF
(1708736735.206553) can0 6F1#120221F000000000
(1708736735.224640) can0 612#F1100E61F000464F
(1708736735.225298) can0 6F1#1230000000000000
(1708736735.225593) can0 612#F12130F3392D5000
(1708736735.225840) can0 612#F122004F00FFFFFF
(1708736735.252467) can0 130#45FFFDFFFF
(1708736735.256273) can0 6F1#120221F000000000
(1708736735.274315) can0 612#F1100E61F000464F
(1708736735.274959) can0 6F1#1230000000000000
(1708736735.275220) can0 612#F12130F3392D5000
(1708736735.275477) can0 612#F122004F00FFFFFF
(1708736735.305797) can0 6F1#120221F000000000
(1708736735.324662) can0 612#F1100E61F000464F
(1708736735.325312) can0 6F1#1230000000000000
(1708736735.325596) can0 612#F12130F3392D5000
(1708736735.325883) can0 612#F122004F00FFFFFF
(1708736735.352466) can0 130#45FFFDFFFF
(1708736735.356561) can0 6F1#120221F000000000
(1708736735.374328) can0 612#F1100E61F000464F
(1708736735.374978) can0 6F1#1230000000000000
(1708736735.375223) can0 612#F12130F3392D5000
(1708736735.375467) can0 612#F122004F00FFFFFF
(1708736735.452500) can0 130#45FFFDFFFF
(1708736735.552435) can0 130#45FFFDFFFF
(1708736735.652458) can0 130#45FFFDFFFF
(1708736735.652787) can0 6F1#120221F000000000
(1708736735.664636) can0 612#F1100E61F000464F
(1708736735.665294) can0 6F1#1230000000000000
(1708736735.665587) can0 612#F12130F339255000
(1708736735.665832) can0 612#F122004F00FFFFFF
(1708736735.704917) can0 6F1#120221F000000000
(1708736735.714309) can0 612#F1100E61F000464E
(1708736735.714951) can0 6F1#1230000000000000
(1708736735.715211) can0 612#F12130F3392D5000
(1708736735.715458) can0 612#F122004E00FFFFFF
(1708736735.752463) can0 130#45FFFDFFFF
(1708736735.755535) can0 6F1#120221F000000000
(1708736735.774320) can0 612#F1100E61F000464E
(1708736735.774965) can0 6F1#1230000000000000
(1708736735.775260) can0 612#F12130F3392D5000
(1708736735.775505) can0 612#F122004E00FFFFFF
(1708736735.805083) can0 6F1#120221F000000000
(1708736735.814315) can0 612#F1100E61F000464F
(1708736735.814955) can0 6F1#1230000000000000
